
T2448 000:878 SEGGER J-Link V4.15n (beta) Log File (0000ms, 0876ms total)
T2448 000:878 DLL Compiled: Jun 18 2010 19:55:09 (0000ms, 0876ms total)
T2448 000:878 Logging started @ 2016-04-06 18:16 (0000ms, 0876ms total)
T2448 000:878 JLINK_SetWarnOutHandler(...) (0000ms, 0876ms total)
T2448 000:878 JLINK_OpenEx(...)
Firmware: J-Link ARM V8 compiled Nov 14 2012 22:34:52
Hardware: V8.00
S/N: 308622870
Feature(s): RDI,FlashDL,FlashBP,JFlash,GDBFULL  returns O.K. (0184ms, 0876ms total)
T2448 001:062 JLINK_SetErrorOutHandler(...) (0000ms, 1060ms total)
T2448 001:062 JLINK_ExecCommand("ProjectFile = "G:\学习专区\STM32学习\MINI_OK\Program of Robot\Project\RVMDK（uv4）\JLinkSettings.ini"", ...)  returns 0x00 (0000ms, 1060ms total)
T2448 001:078 JLINK_ExecCommand("DisableConnectionTimeout", ...)  returns 0x00 (0000ms, 1060ms total)
T2448 001:078 JLINK_TIF_Select(JLINKARM_TIF_JTAG)  returns 0x00 (0000ms, 1060ms total)
T2448 001:078 JLINK_SetSpeed(5000) (0000ms, 1060ms total)
T2448 001:078 JLINK_GetHardwareVersion()  returns 0x13880 (0000ms, 1060ms total)
T2448 001:078 JLINK_GetDLLVersion()  returns 41514 (0000ms, 1060ms total)
T2448 001:078 JLINK_GetFirmwareString(...) (0000ms, 1060ms total)
T2448 001:090 JLINK_GetDLLVersion()  returns 41514 (0000ms, 1060ms total)
T2448 001:090 JLINK_GetCompileDateTime() (0000ms, 1060ms total)
T2448 001:095 JLINK_GetFirmwareString(...) (0000ms, 1060ms total)
T2448 001:097 JLINK_GetHardwareVersion()  returns 0x13880 (0000ms, 1060ms total)
T2448 001:109 JLINK_Reset() >0x2F8 JTAG>TotalIRLen = 9, IRPrint = 0x0011 >0x30 JTAG> >0x210 JTAG> >0x118 JTAG> >0xD8 JTAG> >0x198 JTAG> >0x38 JTAG> >0x118 JTAG> >0xD8 JTAG> >0x2F0 JTAG> >0x2F0 JTAG> >0x198 JTAG> >0x198 JTAG>Found Cortex-M3 r1p1, Little endian. >0xD8 JTAG> >0x240 JTAG> >0x198 JTAG> >0x198 JTAG>TPIU fitted. >0x198 JTAG>ETM fitted. >0x198 JTAG>  FPUnit: 6 code (BP) slots and 2 literal slots >0x198 JTAG> >0x250 JTAG> >0x240 JTAG> >0x280 JTAG> >0x198 JTAG> >0x198 JTAG> >0x240 JTAG>
 >0x240 JTAG> >0x198 JTAG> >0x198 JTAG> >0x17A8 JTAG> >0x240 JTAG> >0x198 JTAG> >0x17A8 JTAG> >0x198 JTAG> -- CPU_WriteMem(4 bytes @ 0xE000EDFC) -- CPU_WriteMem(4 bytes @ 0xE0001028) -- CPU_WriteMem(4 bytes @ 0xE0001038) -- CPU_WriteMem(4 bytes @ 0xE0001048) -- CPU_WriteMem(4 bytes @ 0xE0001058) (0063ms, 1060ms total)
T2448 001:172 JLINK_GetIdData(...) ScanLen=9 NumDevices=2 aId[0]=0x3BA00477 aIrRead[0]=0 aScanLen[0]=0 aScanRead[0]=0 (0000ms, 1123ms total)
T2448 001:172 JLINK_JTAG_GetDeviceID(DeviceIndex = 0)  returns 0x3BA00477 (0000ms, 1123ms total)
T2448 001:172 JLINK_JTAG_GetDeviceInfo(DeviceIndex = 0)  returns 0x00 (0000ms, 1123ms total)
T2448 001:172 JLINK_JTAG_GetDeviceID(DeviceIndex = 1)  returns 0x6414041 (0000ms, 1123ms total)
T2448 001:172 JLINK_JTAG_GetDeviceInfo(DeviceIndex = 1)  returns 0x00 (0000ms, 1123ms total)
T2448 001:172 JLINK_GetDebugInfo(0x100) -- Value=0xE00FF003  returns 0x00 (0000ms, 1123ms total)
T2448 001:174 JLINK_ReadMem (0xE00FF000, 0x0018 Bytes, ...) -- CPU_ReadMem(24 bytes @ 0xE00FF000) -- Data:  03 F0 F0 FF 03 20 F0 FF 03 30 F0 FF 03 10 F0 FF ...  returns 0x00 (0001ms, 1123ms total)
T2448 001:175 JLINK_ReadMemU32(0xE000ED00, 0x0001 Items, ...) -- CPU_ReadMem(4 bytes @ 0xE000ED00) -- Data:  31 C2 1F 41  returns 0x01 (0001ms, 1124ms total)
T2448 001:177 JLINK_Halt()  returns 0x00 (0000ms, 1125ms total)
T2448 001:177 JLINK_IsHalted()  returns TRUE (0000ms, 1125ms total)
T2448 001:177 JLINK_ReadMemU32(0xE000EDF0, 0x0001 Items, ...) -- CPU_ReadMem(4 bytes @ 0xE000EDF0) -- Data:  03 00 03 00  returns 0x01 (0001ms, 1125ms total)
T2448 001:178 JLINK_WriteU32(0xE000EDF0, 0xA05F0003) -- CPU_WriteMem(4 bytes @ 0xE000EDF0)  returns 0x00 (0000ms, 1126ms total)
T2448 001:178 JLINK_WriteU32(0xE000EDFC, 0x01000000) -- CPU_WriteMem(4 bytes @ 0xE000EDFC)  returns 0x00 (0001ms, 1126ms total)
T2448 001:179 JLINK_ReadMemU32(0xE0002000, 0x0001 Items, ...) -- CPU_ReadMem(4 bytes @ 0xE0002000) -- Data:  60 02 00 00  returns 0x01 (0000ms, 1127ms total)
T2448 001:179 JLINK_ReadMemU32(0xE0001000, 0x0001 Items, ...) -- CPU_ReadMem(4 bytes @ 0xE0001000) -- Data:  01 00 00 40  returns 0x01 (0001ms, 1127ms total)
T2448 001:193 JLINK_ExecCommand("Device = STM32F103VE", ...)
                JLINK_ExecCommand("map ram 0x20000000 - 0x2000FFFF", ...)  returns 0x00 (0000ms, 0000ms total)
                JLINK_AddMirrorAreaEx(Addr = 0x00000000, Size = 0x00000000) (0000ms, 0000ms total)
                returns 0x00 (0001ms, 1128ms total)
T2448 001:194 JLINK_GetHWStatus(...)  returns 0x00 (0000ms, 1129ms total)
T2448 001:203 JLINK_GetNumBPUnits(Type = 0xFFFFFF00) >0x2F8 JTAG>TotalIRLen = 9, IRPrint = 0x0011 >0x30 JTAG> >0x210 JTAG> >0x118 JTAG> >0xD8 JTAG> >0x198 JTAG> >0x38 JTAG> >0x118 JTAG> >0xD8 JTAG> >0x2F0 JTAG> >0x2F0 JTAG> >0x198 JTAG> >0x198 JTAG>Found Cortex-M3 r1p1, Little endian. >0xD8 JTAG> >0x240 JTAG> >0x198 JTAG> >0x198 JTAG>TPIU fitted. >0x198 JTAG>ETM fitted. >0x198 JTAG>  FPUnit: 6 code (BP) slots and 2 literal slots >0x198 JTAG>  returns 0x06 (0026ms, 1129ms total)
T2448 001:229 JLINK_GetNumBPUnits(Type = 0xF0)  returns 0x800 (0000ms, 1155ms total)
T2448 001:229 JLINK_GetNumWPUnits()  returns 0x04 (0000ms, 1155ms total)
T2448 001:239 JLINK_GetSpeed()  returns 0x12C0 (0000ms, 1155ms total)
T2448 001:242 JLINK_ReadMemU32(0xE000E004, 0x0001 Items, ...) -- CPU_ReadMem(4 bytes @ 0xE000E004) -- Data:  01 00 00 00  returns 0x01 (0001ms, 1155ms total)
T2448 001:243 JLINK_WriteMem(0xE0001000, 0x001C Bytes, ...) -- Data:  01 00 00 00 00 00 00 00 00 00 00 00 00 00 00 00 ... -- CPU_WriteMem(28 bytes @ 0xE0001000)  returns 0x1C (0000ms, 1156ms total)
T2448 001:243 JLINK_ReadMem (0xE0001000, 0x001C Bytes, ...) -- CPU_ReadMem(28 bytes @ 0xE0001000) -- Data:  01 00 00 40 00 00 00 00 00 00 00 00 00 00 00 00 ...  returns 0x00 (0001ms, 1156ms total)
T2448 001:244 JLINK_Halt()  returns 0x00 (0000ms, 1157ms total)
T2448 001:244 JLINK_IsHalted()  returns TRUE (0000ms, 1157ms total)
T2448 001:248 JLINK_WriteMem(0x20000000, 0x0164 Bytes, ...) -- Data:  00 BE 0A E0 0D 78 2D 06 68 40 08 24 40 00 00 D3 ... -- CPU_WriteMem(356 bytes @ 0x20000000)  returns 0x164 (0004ms, 1157ms total)
T2448 001:252 JLINK_WriteReg(R0, 0x08000000)  returns 0x00 (0000ms, 1161ms total)
T2448 001:252 JLINK_WriteReg(R1, 0x007A1200)  returns 0x00 (0000ms, 1161ms total)
T2448 001:252 JLINK_WriteReg(R2, 0x00000001)  returns 0x00 (0000ms, 1161ms total)
T2448 001:252 JLINK_WriteReg(R3, 0x00000000)  returns 0x00 (0000ms, 1161ms total)
T2448 001:252 JLINK_WriteReg(R4, 0x00000000)  returns 0x00 (0000ms, 1161ms total)
T2448 001:252 JLINK_WriteReg(R5, 0x00000000)  returns 0x00 (0000ms, 1161ms total)
T2448 001:252 JLINK_WriteReg(R6, 0x00000000)  returns 0x00 (0000ms, 1161ms total)
T2448 001:252 JLINK_WriteReg(R7, 0x00000000)  returns 0x00 (0000ms, 1161ms total)
T2448 001:252 JLINK_WriteReg(R8, 0x00000000)  returns 0x00 (0000ms, 1161ms total)
T2448 001:252 JLINK_WriteReg(R9, 0x20000160)  returns 0x00 (0000ms, 1161ms total)
T2448 001:252 JLINK_WriteReg(R10, 0x00000000)  returns 0x00 (0000ms, 1161ms total)
T2448 001:252 JLINK_WriteReg(R11, 0x00000000)  returns 0x00 (0000ms, 1161ms total)
T2448 001:252 JLINK_WriteReg(R12, 0x00000000)  returns 0x00 (0000ms, 1161ms total)
T2448 001:252 JLINK_WriteReg(R13, 0x20000800)  returns 0x00 (0000ms, 1161ms total)
T2448 001:252 JLINK_WriteReg(R14, 0x20000001)  returns 0x00 (0000ms, 1161ms total)
T2448 001:252 JLINK_WriteReg(R15, 0x20000038)  returns 0x00 (0000ms, 1161ms total)
T2448 001:252 JLINK_WriteReg(XPSR, 0x01000000)  returns 0x00 (0000ms, 1161ms total)
T2448 001:252 JLINK_WriteReg(MSP, 0x20000800)  returns 0x00 (0000ms, 1161ms total)
T2448 001:252 JLINK_WriteReg(PSP, 0x20000800)  returns 0x00 (0000ms, 1161ms total)
T2448 001:252 JLINK_WriteReg(CFBP, 0x00000000)  returns 0x00 (0000ms, 1161ms total)
T2448 001:252 JLINK_SetBPEx(Addr = 0x20000000, Type = 0xFFFFFFF2) -- CPU_ReadMem(2 bytes @ 0x20000000)  returns 0x00000001 (0001ms, 1161ms total)
T2448 001:253 JLINK_Go() -- CPU_WriteMem(2 bytes @ 0x20000000) -- CPU_WriteMem(4 bytes @ 0xE0002008) -- CPU_WriteMem(4 bytes @ 0xE000200C) -- CPU_WriteMem(4 bytes @ 0xE0002010) -- CPU_WriteMem(4 bytes @ 0xE0002014) -- CPU_WriteMem(4 bytes @ 0xE0002018) -- CPU_WriteMem(4 bytes @ 0xE000201C) (0006ms, 1162ms total)
T2448 001:259 JLINK_IsHalted() -- CPU_ReadMem(2 bytes @ 0x20000000)  returns TRUE (0005ms, 1168ms total)
T2448 001:264 JLINK_ReadReg(R15)  returns 0x20000000 (0000ms, 1168ms total)
T2448 001:264 JLINK_ClrBPEx(BPHandle = 0x00000001)  returns 0x00 (0000ms, 1168ms total)
T2448 001:264 JLINK_ReadReg(R0)  returns 0x00000000 (0000ms, 1168ms total)
T2448 001:265 JLINK_WriteReg(R0, 0x08000000)  returns 0x00 (0000ms, 1168ms total)
T2448 001:265 JLINK_WriteReg(R1, 0x007A1200)  returns 0x00 (0000ms, 1168ms total)
T2448 001:265 JLINK_WriteReg(R2, 0x00000001)  returns 0x00 (0000ms, 1168ms total)
T2448 001:265 JLINK_WriteReg(R3, 0x00000000)  returns 0x00 (0000ms, 1168ms total)
T2448 001:265 JLINK_WriteReg(R4, 0x00000000)  returns 0x00 (0000ms, 1168ms total)
T2448 001:265 JLINK_WriteReg(R5, 0x00000000)  returns 0x00 (0000ms, 1168ms total)
T2448 001:265 JLINK_WriteReg(R6, 0x00000000)  returns 0x00 (0000ms, 1168ms total)
T2448 001:265 JLINK_WriteReg(R7, 0x00000000)  returns 0x00 (0000ms, 1168ms total)
T2448 001:265 JLINK_WriteReg(R8, 0x00000000)  returns 0x00 (0000ms, 1168ms total)
T2448 001:265 JLINK_WriteReg(R9, 0x20000160)  returns 0x00 (0000ms, 1168ms total)
T2448 001:265 JLINK_WriteReg(R10, 0x00000000)  returns 0x00 (0000ms, 1168ms total)
T2448 001:265 JLINK_WriteReg(R11, 0x00000000)  returns 0x00 (0000ms, 1168ms total)
T2448 001:265 JLINK_WriteReg(R12, 0x00000000)  returns 0x00 (0000ms, 1168ms total)
T2448 001:265 JLINK_WriteReg(R13, 0x20000800)  returns 0x00 (0000ms, 1168ms total)
T2448 001:265 JLINK_WriteReg(R14, 0x20000001)  returns 0x00 (0000ms, 1168ms total)
T2448 001:265 JLINK_WriteReg(R15, 0x2000007C)  returns 0x00 (0000ms, 1168ms total)
T2448 001:265 JLINK_WriteReg(XPSR, 0x01000000)  returns 0x00 (0000ms, 1168ms total)
T2448 001:265 JLINK_WriteReg(MSP, 0x20000800)  returns 0x00 (0000ms, 1168ms total)
T2448 001:265 JLINK_WriteReg(PSP, 0x20000800)  returns 0x00 (0000ms, 1168ms total)
T2448 001:265 JLINK_WriteReg(CFBP, 0x00000000)  returns 0x00 (0000ms, 1168ms total)
T2448 001:265 JLINK_SetBPEx(Addr = 0x20000000, Type = 0xFFFFFFF2)  returns 0x00000002 (0000ms, 1168ms total)
T2448 001:265 JLINK_Go() -- CPU_WriteMem(4 bytes @ 0xE0002008) -- CPU_WriteMem(4 bytes @ 0xE000200C) -- CPU_WriteMem(4 bytes @ 0xE0002010) -- CPU_WriteMem(4 bytes @ 0xE0002014) -- CPU_WriteMem(4 bytes @ 0xE0002018) -- CPU_WriteMem(4 bytes @ 0xE000201C) (0004ms, 1168ms total)
T2448 001:269 JLINK_IsHalted()  returns FALSE (0001ms, 1172ms total)
T2448 001:321 JLINK_IsHalted() -- CPU_ReadMem(2 bytes @ 0x20000000)  returns TRUE (0004ms, 1172ms total)
T2448 001:325 JLINK_ReadReg(R15)  returns 0x20000000 (0001ms, 1172ms total)
T2448 001:326 JLINK_ClrBPEx(BPHandle = 0x00000002)  returns 0x00 (0000ms, 1173ms total)
T2448 001:326 JLINK_ReadReg(R0)  returns 0x00000000 (0000ms, 1173ms total)
T2448 001:379 JLINK_WriteReg(R0, 0x00000001)  returns 0x00 (0000ms, 1173ms total)
T2448 001:379 JLINK_WriteReg(R1, 0x007A1200)  returns 0x00 (0000ms, 1173ms total)
T2448 001:379 JLINK_WriteReg(R2, 0x00000001)  returns 0x00 (0000ms, 1173ms total)
T2448 001:379 JLINK_WriteReg(R3, 0x00000000)  returns 0x00 (0000ms, 1173ms total)
T2448 001:379 JLINK_WriteReg(R4, 0x00000000)  returns 0x00 (0000ms, 1173ms total)
T2448 001:379 JLINK_WriteReg(R5, 0x00000000)  returns 0x00 (0000ms, 1173ms total)
T2448 001:379 JLINK_WriteReg(R6, 0x00000000)  returns 0x00 (0000ms, 1173ms total)
T2448 001:379 JLINK_WriteReg(R7, 0x00000000)  returns 0x00 (0000ms, 1173ms total)
T2448 001:379 JLINK_WriteReg(R8, 0x00000000)  returns 0x00 (0000ms, 1173ms total)
T2448 001:379 JLINK_WriteReg(R9, 0x20000160)  returns 0x00 (0000ms, 1173ms total)
T2448 001:379 JLINK_WriteReg(R10, 0x00000000)  returns 0x00 (0000ms, 1173ms total)
T2448 001:379 JLINK_WriteReg(R11, 0x00000000)  returns 0x00 (0000ms, 1173ms total)
T2448 001:379 JLINK_WriteReg(R12, 0x00000000)  returns 0x00 (0000ms, 1173ms total)
T2448 001:379 JLINK_WriteReg(R13, 0x20000800)  returns 0x00 (0001ms, 1173ms total)
T2448 001:380 JLINK_WriteReg(R14, 0x20000001)  returns 0x00 (0000ms, 1174ms total)
T2448 001:380 JLINK_WriteReg(R15, 0x2000006A)  returns 0x00 (0000ms, 1174ms total)
T2448 001:380 JLINK_WriteReg(XPSR, 0x01000000)  returns 0x00 (0000ms, 1174ms total)
T2448 001:380 JLINK_WriteReg(MSP, 0x20000800)  returns 0x00 (0000ms, 1174ms total)
T2448 001:380 JLINK_WriteReg(PSP, 0x20000800)  returns 0x00 (0000ms, 1174ms total)
T2448 001:380 JLINK_WriteReg(CFBP, 0x00000000)  returns 0x00 (0000ms, 1174ms total)
T2448 001:380 JLINK_SetBPEx(Addr = 0x20000000, Type = 0xFFFFFFF2)  returns 0x00000003 (0000ms, 1174ms total)
T2448 001:380 JLINK_Go() -- CPU_WriteMem(4 bytes @ 0xE0002008) -- CPU_WriteMem(4 bytes @ 0xE000200C) -- CPU_WriteMem(4 bytes @ 0xE0002010) -- CPU_WriteMem(4 bytes @ 0xE0002014) -- CPU_WriteMem(4 bytes @ 0xE0002018) -- CPU_WriteMem(4 bytes @ 0xE000201C) (0006ms, 1174ms total)
T2448 001:386 JLINK_IsHalted() -- CPU_ReadMem(2 bytes @ 0x20000000)  returns TRUE (0005ms, 1180ms total)
T2448 001:391 JLINK_ReadReg(R15)  returns 0x20000000 (0000ms, 1180ms total)
T2448 001:391 JLINK_ClrBPEx(BPHandle = 0x00000003)  returns 0x00 (0000ms, 1180ms total)
T2448 001:391 JLINK_ReadReg(R0)  returns 0x00000000 (0000ms, 1180ms total)
T2448 001:409 JLINK_WriteMem(0x20000000, 0x0164 Bytes, ...) -- Data:  00 BE 0A E0 0D 78 2D 06 68 40 08 24 40 00 00 D3 ... -- CPU_WriteMem(356 bytes @ 0x20000000)  returns 0x164 (0004ms, 1180ms total)
T2448 001:413 JLINK_WriteReg(R0, 0x08000000)  returns 0x00 (0000ms, 1184ms total)
T2448 001:413 JLINK_WriteReg(R1, 0x007A1200)  returns 0x00 (0000ms, 1184ms total)
T2448 001:413 JLINK_WriteReg(R2, 0x00000002)  returns 0x00 (0000ms, 1184ms total)
T2448 001:413 JLINK_WriteReg(R3, 0x00000000)  returns 0x00 (0000ms, 1184ms total)
T2448 001:413 JLINK_WriteReg(R4, 0x00000000)  returns 0x00 (0000ms, 1184ms total)
T2448 001:413 JLINK_WriteReg(R5, 0x00000000)  returns 0x00 (0000ms, 1184ms total)
T2448 001:413 JLINK_WriteReg(R6, 0x00000000)  returns 0x00 (0000ms, 1184ms total)
T2448 001:413 JLINK_WriteReg(R7, 0x00000000)  returns 0x00 (0000ms, 1184ms total)
T2448 001:413 JLINK_WriteReg(R8, 0x00000000)  returns 0x00 (0000ms, 1184ms total)
T2448 001:413 JLINK_WriteReg(R9, 0x20000160)  returns 0x00 (0000ms, 1184ms total)
T2448 001:413 JLINK_WriteReg(R10, 0x00000000)  returns 0x00 (0000ms, 1184ms total)
T2448 001:413 JLINK_WriteReg(R11, 0x00000000)  returns 0x00 (0000ms, 1184ms total)
T2448 001:413 JLINK_WriteReg(R12, 0x00000000)  returns 0x00 (0000ms, 1184ms total)
T2448 001:413 JLINK_WriteReg(R13, 0x20000800)  returns 0x00 (0000ms, 1184ms total)
T2448 001:413 JLINK_WriteReg(R14, 0x20000001)  returns 0x00 (0000ms, 1184ms total)
T2448 001:413 JLINK_WriteReg(R15, 0x20000038)  returns 0x00 (0000ms, 1184ms total)
T2448 001:413 JLINK_WriteReg(XPSR, 0x01000000)  returns 0x00 (0000ms, 1184ms total)
T2448 001:413 JLINK_WriteReg(MSP, 0x20000800)  returns 0x00 (0000ms, 1184ms total)
T2448 001:413 JLINK_WriteReg(PSP, 0x20000800)  returns 0x00 (0000ms, 1184ms total)
T2448 001:413 JLINK_WriteReg(CFBP, 0x00000000)  returns 0x00 (0000ms, 1184ms total)
T2448 001:413 JLINK_SetBPEx(Addr = 0x20000000, Type = 0xFFFFFFF2) -- CPU_ReadMem(2 bytes @ 0x20000000)  returns 0x00000004 (0001ms, 1184ms total)
T2448 001:414 JLINK_Go() -- CPU_WriteMem(2 bytes @ 0x20000000) -- CPU_WriteMem(4 bytes @ 0xE0002008) -- CPU_WriteMem(4 bytes @ 0xE000200C) -- CPU_WriteMem(4 bytes @ 0xE0002010) -- CPU_WriteMem(4 bytes @ 0xE0002014) -- CPU_WriteMem(4 bytes @ 0xE0002018) -- CPU_WriteMem(4 bytes @ 0xE000201C) (0007ms, 1185ms total)
T2448 001:421 JLINK_IsHalted() -- CPU_ReadMem(2 bytes @ 0x20000000)  returns TRUE (0004ms, 1192ms total)
T2448 001:425 JLINK_ReadReg(R15)  returns 0x20000000 (0000ms, 1192ms total)
T2448 001:425 JLINK_ClrBPEx(BPHandle = 0x00000004)  returns 0x00 (0000ms, 1192ms total)
T2448 001:425 JLINK_ReadReg(R0)  returns 0x00000000 (0000ms, 1192ms total)
T2448 001:426 JLINK_WriteMem(0x20000164, 0x0400 Bytes, ...) -- Data:  90 75 00 20 45 01 00 08 CD 23 00 08 0D 1B 00 08 ... -- CPU_WriteMem(1024 bytes @ 0x20000164)  returns 0x400 (0008ms, 1192ms total)
T2448 001:434 JLINK_WriteReg(R0, 0x08000000)  returns 0x00 (0000ms, 1200ms total)
T2448 001:434 JLINK_WriteReg(R1, 0x00000400)  returns 0x00 (0000ms, 1200ms total)
T2448 001:434 JLINK_WriteReg(R2, 0x20000164)  returns 0x00 (0000ms, 1200ms total)
T2448 001:434 JLINK_WriteReg(R3, 0x00000000)  returns 0x00 (0000ms, 1200ms total)
T2448 001:434 JLINK_WriteReg(R4, 0x00000000)  returns 0x00 (0000ms, 1200ms total)
T2448 001:434 JLINK_WriteReg(R5, 0x00000000)  returns 0x00 (0000ms, 1200ms total)
T2448 001:434 JLINK_WriteReg(R6, 0x00000000)  returns 0x00 (0000ms, 1200ms total)
T2448 001:434 JLINK_WriteReg(R7, 0x00000000)  returns 0x00 (0000ms, 1200ms total)
T2448 001:434 JLINK_WriteReg(R8, 0x00000000)  returns 0x00 (0000ms, 1200ms total)
T2448 001:434 JLINK_WriteReg(R9, 0x20000160)  returns 0x00 (0000ms, 1200ms total)
T2448 001:434 JLINK_WriteReg(R10, 0x00000000)  returns 0x00 (0000ms, 1200ms total)
T2448 001:434 JLINK_WriteReg(R11, 0x00000000)  returns 0x00 (0000ms, 1200ms total)
T2448 001:434 JLINK_WriteReg(R12, 0x00000000)  returns 0x00 (0000ms, 1200ms total)
T2448 001:434 JLINK_WriteReg(R13, 0x20000800)  returns 0x00 (0000ms, 1200ms total)
T2448 001:434 JLINK_WriteReg(R14, 0x20000001)  returns 0x00 (0001ms, 1200ms total)
T2448 001:435 JLINK_WriteReg(R15, 0x200000F4)  returns 0x00 (0000ms, 1201ms total)
T2448 001:435 JLINK_WriteReg(XPSR, 0x01000000)  returns 0x00 (0000ms, 1201ms total)
T2448 001:435 JLINK_WriteReg(MSP, 0x20000800)  returns 0x00 (0000ms, 1201ms total)
T2448 001:435 JLINK_WriteReg(PSP, 0x20000800)  returns 0x00 (0000ms, 1201ms total)
T2448 001:435 JLINK_WriteReg(CFBP, 0x00000000)  returns 0x00 (0000ms, 1201ms total)
T2448 001:435 JLINK_SetBPEx(Addr = 0x20000000, Type = 0xFFFFFFF2)  returns 0x00000005 (0000ms, 1201ms total)
T2448 001:435 JLINK_Go() -- CPU_WriteMem(4 bytes @ 0xE0002008) -- CPU_WriteMem(4 bytes @ 0xE000200C) -- CPU_WriteMem(4 bytes @ 0xE0002010) -- CPU_WriteMem(4 bytes @ 0xE0002014) -- CPU_WriteMem(4 bytes @ 0xE0002018) -- CPU_WriteMem(4 bytes @ 0xE000201C) (0005ms, 1201ms total)
T2448 001:440 JLINK_IsHalted()  returns FALSE (0000ms, 1206ms total)
T2448 001:491 JLINK_IsHalted() -- CPU_ReadMem(2 bytes @ 0x20000000)  returns TRUE (0004ms, 1206ms total)
T2448 001:495 JLINK_ReadReg(R15)  returns 0x20000000 (0000ms, 1206ms total)
T2448 001:495 JLINK_ClrBPEx(BPHandle = 0x00000005)  returns 0x00 (0000ms, 1206ms total)
T2448 001:495 JLINK_ReadReg(R0)  returns 0x00000000 (0000ms, 1206ms total)
T2448 001:498 JLINK_WriteMem(0x20000164, 0x0400 Bytes, ...) -- Data:  00 90 40 28 67 DA C3 F3 13 00 40 F4 80 1B 01 98 ... -- CPU_WriteMem(1024 bytes @ 0x20000164)  returns 0x400 (0009ms, 1206ms total)
T2448 001:507 JLINK_WriteReg(R0, 0x08000400)  returns 0x00 (0000ms, 1215ms total)
T2448 001:507 JLINK_WriteReg(R1, 0x00000400)  returns 0x00 (0000ms, 1215ms total)
T2448 001:507 JLINK_WriteReg(R2, 0x20000164)  returns 0x00 (0000ms, 1215ms total)
T2448 001:507 JLINK_WriteReg(R3, 0x00000000)  returns 0x00 (0000ms, 1215ms total)
T2448 001:507 JLINK_WriteReg(R4, 0x00000000)  returns 0x00 (0000ms, 1215ms total)
T2448 001:507 JLINK_WriteReg(R5, 0x00000000)  returns 0x00 (0000ms, 1215ms total)
T2448 001:507 JLINK_WriteReg(R6, 0x00000000)  returns 0x00 (0000ms, 1215ms total)
T2448 001:507 JLINK_WriteReg(R7, 0x00000000)  returns 0x00 (0000ms, 1215ms total)
T2448 001:507 JLINK_WriteReg(R8, 0x00000000)  returns 0x00 (0000ms, 1215ms total)
T2448 001:507 JLINK_WriteReg(R9, 0x20000160)  returns 0x00 (0000ms, 1215ms total)
T2448 001:507 JLINK_WriteReg(R10, 0x00000000)  returns 0x00 (0000ms, 1215ms total)
T2448 001:507 JLINK_WriteReg(R11, 0x00000000)  returns 0x00 (0000ms, 1215ms total)
T2448 001:507 JLINK_WriteReg(R12, 0x00000000)  returns 0x00 (0000ms, 1215ms total)
T2448 001:507 JLINK_WriteReg(R13, 0x20000800)  returns 0x00 (0000ms, 1215ms total)
T2448 001:507 JLINK_WriteReg(R14, 0x20000001)  returns 0x00 (0000ms, 1215ms total)
T2448 001:507 JLINK_WriteReg(R15, 0x200000F4)  returns 0x00 (0000ms, 1215ms total)
T2448 001:507 JLINK_WriteReg(XPSR, 0x01000000)  returns 0x00 (0000ms, 1215ms total)
T2448 001:507 JLINK_WriteReg(MSP, 0x20000800)  returns 0x00 (0000ms, 1215ms total)
T2448 001:507 JLINK_WriteReg(PSP, 0x20000800)  returns 0x00 (0000ms, 1215ms total)
T2448 001:507 JLINK_WriteReg(CFBP, 0x00000000)  returns 0x00 (0000ms, 1215ms total)
T2448 001:507 JLINK_SetBPEx(Addr = 0x20000000, Type = 0xFFFFFFF2)  returns 0x00000006 (0000ms, 1215ms total)
T2448 001:507 JLINK_Go() -- CPU_WriteMem(4 bytes @ 0xE0002008) -- CPU_WriteMem(4 bytes @ 0xE000200C) -- CPU_WriteMem(4 bytes @ 0xE0002010) -- CPU_WriteMem(4 bytes @ 0xE0002014) -- CPU_WriteMem(4 bytes @ 0xE0002018) -- CPU_WriteMem(4 bytes @ 0xE000201C) (0005ms, 1215ms total)
T2448 001:512 JLINK_IsHalted()  returns FALSE (0001ms, 1220ms total)
T2448 001:564 JLINK_IsHalted() -- CPU_ReadMem(2 bytes @ 0x20000000)  returns TRUE (0005ms, 1220ms total)
T2448 001:569 JLINK_ReadReg(R15)  returns 0x20000000 (0000ms, 1220ms total)
T2448 001:569 JLINK_ClrBPEx(BPHandle = 0x00000006)  returns 0x00 (0000ms, 1220ms total)
T2448 001:569 JLINK_ReadReg(R0)  returns 0x00000000 (0000ms, 1220ms total)
T2448 001:570 JLINK_WriteMem(0x20000164, 0x0400 Bytes, ...) -- Data:  A2 F1 01 02 F1 DC 30 BD 20 2A 04 DB 20 3A 00 FA ... -- CPU_WriteMem(1024 bytes @ 0x20000164)  returns 0x400 (0009ms, 1220ms total)
T2448 001:579 JLINK_WriteReg(R0, 0x08000800)  returns 0x00 (0000ms, 1229ms total)
T2448 001:579 JLINK_WriteReg(R1, 0x00000400)  returns 0x00 (0000ms, 1229ms total)
T2448 001:579 JLINK_WriteReg(R2, 0x20000164)  returns 0x00 (0000ms, 1229ms total)
T2448 001:579 JLINK_WriteReg(R3, 0x00000000)  returns 0x00 (0000ms, 1229ms total)
T2448 001:579 JLINK_WriteReg(R4, 0x00000000)  returns 0x00 (0000ms, 1229ms total)
T2448 001:579 JLINK_WriteReg(R5, 0x00000000)  returns 0x00 (0000ms, 1229ms total)
T2448 001:579 JLINK_WriteReg(R6, 0x00000000)  returns 0x00 (0000ms, 1229ms total)
T2448 001:579 JLINK_WriteReg(R7, 0x00000000)  returns 0x00 (0000ms, 1229ms total)
T2448 001:579 JLINK_WriteReg(R8, 0x00000000)  returns 0x00 (0000ms, 1229ms total)
T2448 001:579 JLINK_WriteReg(R9, 0x20000160)  returns 0x00 (0000ms, 1229ms total)
T2448 001:579 JLINK_WriteReg(R10, 0x00000000)  returns 0x00 (0000ms, 1229ms total)
T2448 001:579 JLINK_WriteReg(R11, 0x00000000)  returns 0x00 (0001ms, 1229ms total)
T2448 001:580 JLINK_WriteReg(R12, 0x00000000)  returns 0x00 (0000ms, 1230ms total)
T2448 001:580 JLINK_WriteReg(R13, 0x20000800)  returns 0x00 (0000ms, 1230ms total)
T2448 001:580 JLINK_WriteReg(R14, 0x20000001)  returns 0x00 (0000ms, 1230ms total)
T2448 001:580 JLINK_WriteReg(R15, 0x200000F4)  returns 0x00 (0000ms, 1230ms total)
T2448 001:580 JLINK_WriteReg(XPSR, 0x01000000)  returns 0x00 (0000ms, 1230ms total)
T2448 001:580 JLINK_WriteReg(MSP, 0x20000800)  returns 0x00 (0000ms, 1230ms total)
T2448 001:580 JLINK_WriteReg(PSP, 0x20000800)  returns 0x00 (0000ms, 1230ms total)
T2448 001:580 JLINK_WriteReg(CFBP, 0x00000000)  returns 0x00 (0000ms, 1230ms total)
T2448 001:580 JLINK_SetBPEx(Addr = 0x20000000, Type = 0xFFFFFFF2)  returns 0x00000007 (0000ms, 1230ms total)
T2448 001:580 JLINK_Go() -- CPU_WriteMem(4 bytes @ 0xE0002008) -- CPU_WriteMem(4 bytes @ 0xE000200C) -- CPU_WriteMem(4 bytes @ 0xE0002010) -- CPU_WriteMem(4 bytes @ 0xE0002014) -- CPU_WriteMem(4 bytes @ 0xE0002018) -- CPU_WriteMem(4 bytes @ 0xE000201C) (0007ms, 1230ms total)
T2448 001:587 JLINK_IsHalted()  returns FALSE (0000ms, 1237ms total)
T2448 001:638 JLINK_IsHalted() -- CPU_ReadMem(2 bytes @ 0x20000000)  returns TRUE (0005ms, 1237ms total)
T2448 001:643 JLINK_ReadReg(R15)  returns 0x20000000 (0000ms, 1237ms total)
T2448 001:643 JLINK_ClrBPEx(BPHandle = 0x00000007)  returns 0x00 (0000ms, 1237ms total)
T2448 001:643 JLINK_ReadReg(R0)  returns 0x00000000 (0000ms, 1237ms total)
T2448 001:644 JLINK_WriteMem(0x20000164, 0x0400 Bytes, ...) -- Data:  6B 46 00 22 06 A1 78 30 01 F0 84 FE 08 BD 00 00 ... -- CPU_WriteMem(1024 bytes @ 0x20000164)  returns 0x400 (0008ms, 1237ms total)
T2448 001:652 JLINK_WriteReg(R0, 0x08000C00)  returns 0x00 (0000ms, 1245ms total)
T2448 001:652 JLINK_WriteReg(R1, 0x00000400)  returns 0x00 (0000ms, 1245ms total)
T2448 001:653 JLINK_WriteReg(R2, 0x20000164)  returns 0x00 (0000ms, 1245ms total)
T2448 001:653 JLINK_WriteReg(R3, 0x00000000)  returns 0x00 (0000ms, 1245ms total)
T2448 001:653 JLINK_WriteReg(R4, 0x00000000)  returns 0x00 (0000ms, 1245ms total)
T2448 001:653 JLINK_WriteReg(R5, 0x00000000)  returns 0x00 (0000ms, 1245ms total)
T2448 001:653 JLINK_WriteReg(R6, 0x00000000)  returns 0x00 (0000ms, 1245ms total)
T2448 001:653 JLINK_WriteReg(R7, 0x00000000)  returns 0x00 (0000ms, 1245ms total)
T2448 001:653 JLINK_WriteReg(R8, 0x00000000)  returns 0x00 (0000ms, 1245ms total)
T2448 001:653 JLINK_WriteReg(R9, 0x20000160)  returns 0x00 (0000ms, 1245ms total)
T2448 001:653 JLINK_WriteReg(R10, 0x00000000)  returns 0x00 (0000ms, 1245ms total)
T2448 001:653 JLINK_WriteReg(R11, 0x00000000)  returns 0x00 (0000ms, 1245ms total)
T2448 001:653 JLINK_WriteReg(R12, 0x00000000)  returns 0x00 (0000ms, 1245ms total)
T2448 001:653 JLINK_WriteReg(R13, 0x20000800)  returns 0x00 (0000ms, 1245ms total)
T2448 001:653 JLINK_WriteReg(R14, 0x20000001)  returns 0x00 (0000ms, 1245ms total)
T2448 001:653 JLINK_WriteReg(R15, 0x200000F4)  returns 0x00 (0000ms, 1245ms total)
T2448 001:653 JLINK_WriteReg(XPSR, 0x01000000)  returns 0x00 (0000ms, 1245ms total)
T2448 001:653 JLINK_WriteReg(MSP, 0x20000800)  returns 0x00 (0000ms, 1245ms total)
T2448 001:653 JLINK_WriteReg(PSP, 0x20000800)  returns 0x00 (0000ms, 1245ms total)
T2448 001:653 JLINK_WriteReg(CFBP, 0x00000000)  returns 0x00 (0000ms, 1245ms total)
T2448 001:653 JLINK_SetBPEx(Addr = 0x20000000, Type = 0xFFFFFFF2)  returns 0x00000008 (0000ms, 1245ms total)
T2448 001:653 JLINK_Go() -- CPU_WriteMem(4 bytes @ 0xE0002008) -- CPU_WriteMem(4 bytes @ 0xE000200C) -- CPU_WriteMem(4 bytes @ 0xE0002010) -- CPU_WriteMem(4 bytes @ 0xE0002014) -- CPU_WriteMem(4 bytes @ 0xE0002018) -- CPU_WriteMem(4 bytes @ 0xE000201C) (0007ms, 1245ms total)
T2448 001:660 JLINK_IsHalted()  returns FALSE (0001ms, 1252ms total)
T2448 001:712 JLINK_IsHalted() -- CPU_ReadMem(2 bytes @ 0x20000000)  returns TRUE (0004ms, 1252ms total)
T2448 001:716 JLINK_ReadReg(R15)  returns 0x20000000 (0000ms, 1252ms total)
T2448 001:716 JLINK_ClrBPEx(BPHandle = 0x00000008)  returns 0x00 (0001ms, 1252ms total)
T2448 001:717 JLINK_ReadReg(R0)  returns 0x00000000 (0000ms, 1253ms total)
T2448 001:718 JLINK_WriteMem(0x20000164, 0x0400 Bytes, ...) -- Data:  0B FF 0A B0 10 BD 00 00 50 1B 00 20 AD 10 00 08 ... -- CPU_WriteMem(1024 bytes @ 0x20000164)  returns 0x400 (0008ms, 1253ms total)
T2448 001:726 JLINK_WriteReg(R0, 0x08001000)  returns 0x00 (0000ms, 1261ms total)
T2448 001:726 JLINK_WriteReg(R1, 0x00000400)  returns 0x00 (0000ms, 1261ms total)
T2448 001:726 JLINK_WriteReg(R2, 0x20000164)  returns 0x00 (0000ms, 1261ms total)
T2448 001:726 JLINK_WriteReg(R3, 0x00000000)  returns 0x00 (0001ms, 1261ms total)
T2448 001:727 JLINK_WriteReg(R4, 0x00000000)  returns 0x00 (0000ms, 1262ms total)
T2448 001:727 JLINK_WriteReg(R5, 0x00000000)  returns 0x00 (0000ms, 1262ms total)
T2448 001:727 JLINK_WriteReg(R6, 0x00000000)  returns 0x00 (0000ms, 1262ms total)
T2448 001:727 JLINK_WriteReg(R7, 0x00000000)  returns 0x00 (0000ms, 1262ms total)
T2448 001:727 JLINK_WriteReg(R8, 0x00000000)  returns 0x00 (0000ms, 1262ms total)
T2448 001:727 JLINK_WriteReg(R9, 0x20000160)  returns 0x00 (0000ms, 1262ms total)
T2448 001:727 JLINK_WriteReg(R10, 0x00000000)  returns 0x00 (0000ms, 1262ms total)
T2448 001:727 JLINK_WriteReg(R11, 0x00000000)  returns 0x00 (0000ms, 1262ms total)
T2448 001:727 JLINK_WriteReg(R12, 0x00000000)  returns 0x00 (0000ms, 1262ms total)
T2448 001:727 JLINK_WriteReg(R13, 0x20000800)  returns 0x00 (0000ms, 1262ms total)
T2448 001:727 JLINK_WriteReg(R14, 0x20000001)  returns 0x00 (0000ms, 1262ms total)
T2448 001:727 JLINK_WriteReg(R15, 0x200000F4)  returns 0x00 (0000ms, 1262ms total)
T2448 001:727 JLINK_WriteReg(XPSR, 0x01000000)  returns 0x00 (0000ms, 1262ms total)
T2448 001:727 JLINK_WriteReg(MSP, 0x20000800)  returns 0x00 (0000ms, 1262ms total)
T2448 001:727 JLINK_WriteReg(PSP, 0x20000800)  returns 0x00 (0000ms, 1262ms total)
T2448 001:727 JLINK_WriteReg(CFBP, 0x00000000)  returns 0x00 (0000ms, 1262ms total)
T2448 001:727 JLINK_SetBPEx(Addr = 0x20000000, Type = 0xFFFFFFF2)  returns 0x00000009 (0000ms, 1262ms total)
T2448 001:727 JLINK_Go() -- CPU_WriteMem(4 bytes @ 0xE0002008) -- CPU_WriteMem(4 bytes @ 0xE000200C) -- CPU_WriteMem(4 bytes @ 0xE0002010) -- CPU_WriteMem(4 bytes @ 0xE0002014) -- CPU_WriteMem(4 bytes @ 0xE0002018) -- CPU_WriteMem(4 bytes @ 0xE000201C) (0007ms, 1262ms total)
T2448 001:734 JLINK_IsHalted()  returns FALSE (0001ms, 1269ms total)
T2448 001:786 JLINK_IsHalted() -- CPU_ReadMem(2 bytes @ 0x20000000)  returns TRUE (0005ms, 1269ms total)
T2448 001:791 JLINK_ReadReg(R15)  returns 0x20000000 (0000ms, 1269ms total)
T2448 001:791 JLINK_ClrBPEx(BPHandle = 0x00000009)  returns 0x00 (0000ms, 1269ms total)
T2448 001:791 JLINK_ReadReg(R0)  returns 0x00000000 (0000ms, 1269ms total)
T2448 001:793 JLINK_WriteMem(0x20000164, 0x0400 Bytes, ...) -- Data:  BD E8 10 40 FF F7 CC BF 0C 02 00 20 10 B5 06 4C ... -- CPU_WriteMem(1024 bytes @ 0x20000164)  returns 0x400 (0008ms, 1269ms total)
T2448 001:801 JLINK_WriteReg(R0, 0x08001400)  returns 0x00 (0000ms, 1277ms total)
T2448 001:801 JLINK_WriteReg(R1, 0x00000400)  returns 0x00 (0000ms, 1277ms total)
T2448 001:801 JLINK_WriteReg(R2, 0x20000164)  returns 0x00 (0000ms, 1277ms total)
T2448 001:801 JLINK_WriteReg(R3, 0x00000000)  returns 0x00 (0000ms, 1277ms total)
T2448 001:801 JLINK_WriteReg(R4, 0x00000000)  returns 0x00 (0000ms, 1277ms total)
T2448 001:801 JLINK_WriteReg(R5, 0x00000000)  returns 0x00 (0000ms, 1277ms total)
T2448 001:801 JLINK_WriteReg(R6, 0x00000000)  returns 0x00 (0000ms, 1277ms total)
T2448 001:801 JLINK_WriteReg(R7, 0x00000000)  returns 0x00 (0000ms, 1277ms total)
T2448 001:801 JLINK_WriteReg(R8, 0x00000000)  returns 0x00 (0001ms, 1277ms total)
T2448 001:802 JLINK_WriteReg(R9, 0x20000160)  returns 0x00 (0000ms, 1278ms total)
T2448 001:802 JLINK_WriteReg(R10, 0x00000000)  returns 0x00 (0000ms, 1278ms total)
T2448 001:802 JLINK_WriteReg(R11, 0x00000000)  returns 0x00 (0000ms, 1278ms total)
T2448 001:802 JLINK_WriteReg(R12, 0x00000000)  returns 0x00 (0000ms, 1278ms total)
T2448 001:802 JLINK_WriteReg(R13, 0x20000800)  returns 0x00 (0000ms, 1278ms total)
T2448 001:802 JLINK_WriteReg(R14, 0x20000001)  returns 0x00 (0000ms, 1278ms total)
T2448 001:802 JLINK_WriteReg(R15, 0x200000F4)  returns 0x00 (0000ms, 1278ms total)
T2448 001:802 JLINK_WriteReg(XPSR, 0x01000000)  returns 0x00 (0000ms, 1278ms total)
T2448 001:802 JLINK_WriteReg(MSP, 0x20000800)  returns 0x00 (0000ms, 1278ms total)
T2448 001:802 JLINK_WriteReg(PSP, 0x20000800)  returns 0x00 (0000ms, 1278ms total)
T2448 001:802 JLINK_WriteReg(CFBP, 0x00000000)  returns 0x00 (0000ms, 1278ms total)
T2448 001:802 JLINK_SetBPEx(Addr = 0x20000000, Type = 0xFFFFFFF2)  returns 0x0000000A (0000ms, 1278ms total)
T2448 001:802 JLINK_Go() -- CPU_WriteMem(4 bytes @ 0xE0002008) -- CPU_WriteMem(4 bytes @ 0xE000200C) -- CPU_WriteMem(4 bytes @ 0xE0002010) -- CPU_WriteMem(4 bytes @ 0xE0002014) -- CPU_WriteMem(4 bytes @ 0xE0002018) -- CPU_WriteMem(4 bytes @ 0xE000201C) (0007ms, 1278ms total)
T2448 001:809 JLINK_IsHalted()  returns FALSE (0000ms, 1285ms total)
T2448 001:860 JLINK_IsHalted() -- CPU_ReadMem(2 bytes @ 0x20000000)  returns TRUE (0004ms, 1285ms total)
T2448 001:864 JLINK_ReadReg(R15)  returns 0x20000000 (0000ms, 1285ms total)
T2448 001:865 JLINK_ClrBPEx(BPHandle = 0x0000000A)  returns 0x00 (0000ms, 1285ms total)
T2448 001:865 JLINK_ReadReg(R0)  returns 0x00000000 (0000ms, 1285ms total)
T2448 001:866 JLINK_WriteMem(0x20000164, 0x0400 Bytes, ...) -- Data:  2D 68 AB 42 03 DD 09 68 00 29 F6 D1 1A E0 C1 B1 ... -- CPU_WriteMem(1024 bytes @ 0x20000164)  returns 0x400 (0008ms, 1285ms total)
T2448 001:874 JLINK_WriteReg(R0, 0x08001800)  returns 0x00 (0000ms, 1293ms total)
T2448 001:874 JLINK_WriteReg(R1, 0x00000400)  returns 0x00 (0000ms, 1293ms total)
T2448 001:874 JLINK_WriteReg(R2, 0x20000164)  returns 0x00 (0001ms, 1293ms total)
T2448 001:875 JLINK_WriteReg(R3, 0x00000000)  returns 0x00 (0000ms, 1294ms total)
T2448 001:875 JLINK_WriteReg(R4, 0x00000000)  returns 0x00 (0000ms, 1294ms total)
T2448 001:875 JLINK_WriteReg(R5, 0x00000000)  returns 0x00 (0000ms, 1294ms total)
T2448 001:875 JLINK_WriteReg(R6, 0x00000000)  returns 0x00 (0000ms, 1294ms total)
T2448 001:875 JLINK_WriteReg(R7, 0x00000000)  returns 0x00 (0000ms, 1294ms total)
T2448 001:875 JLINK_WriteReg(R8, 0x00000000)  returns 0x00 (0000ms, 1294ms total)
T2448 001:875 JLINK_WriteReg(R9, 0x20000160)  returns 0x00 (0000ms, 1294ms total)
T2448 001:875 JLINK_WriteReg(R10, 0x00000000)  returns 0x00 (0000ms, 1294ms total)
T2448 001:875 JLINK_WriteReg(R11, 0x00000000)  returns 0x00 (0000ms, 1294ms total)
T2448 001:875 JLINK_WriteReg(R12, 0x00000000)  returns 0x00 (0000ms, 1294ms total)
T2448 001:875 JLINK_WriteReg(R13, 0x20000800)  returns 0x00 (0000ms, 1294ms total)
T2448 001:875 JLINK_WriteReg(R14, 0x20000001)  returns 0x00 (0001ms, 1294ms total)
T2448 001:876 JLINK_WriteReg(R15, 0x200000F4)  returns 0x00 (0000ms, 1295ms total)
T2448 001:876 JLINK_WriteReg(XPSR, 0x01000000)  returns 0x00 (0000ms, 1295ms total)
T2448 001:876 JLINK_WriteReg(MSP, 0x20000800)  returns 0x00 (0000ms, 1295ms total)
T2448 001:876 JLINK_WriteReg(PSP, 0x20000800)  returns 0x00 (0000ms, 1295ms total)
T2448 001:876 JLINK_WriteReg(CFBP, 0x00000000)  returns 0x00 (0000ms, 1295ms total)
T2448 001:876 JLINK_SetBPEx(Addr = 0x20000000, Type = 0xFFFFFFF2)  returns 0x0000000B (0000ms, 1295ms total)
T2448 001:876 JLINK_Go() -- CPU_WriteMem(4 bytes @ 0xE0002008) -- CPU_WriteMem(4 bytes @ 0xE000200C) -- CPU_WriteMem(4 bytes @ 0xE0002010) -- CPU_WriteMem(4 bytes @ 0xE0002014) -- CPU_WriteMem(4 bytes @ 0xE0002018) -- CPU_WriteMem(4 bytes @ 0xE000201C) (0006ms, 1295ms total)
T2448 001:882 JLINK_IsHalted()  returns FALSE (0001ms, 1301ms total)
T2448 001:934 JLINK_IsHalted() -- CPU_ReadMem(2 bytes @ 0x20000000)  returns TRUE (0004ms, 1301ms total)
T2448 001:938 JLINK_ReadReg(R15)  returns 0x20000000 (0000ms, 1301ms total)
T2448 001:938 JLINK_ClrBPEx(BPHandle = 0x0000000B)  returns 0x00 (0001ms, 1301ms total)
T2448 001:939 JLINK_ReadReg(R0)  returns 0x00000000 (0000ms, 1302ms total)
T2448 001:941 JLINK_WriteMem(0x20000164, 0x0400 Bytes, ...) -- Data:  46 60 86 60 39 49 C1 60 35 49 10 46 FE F7 51 FB ... -- CPU_WriteMem(1024 bytes @ 0x20000164)  returns 0x400 (0008ms, 1302ms total)
T2448 001:950 JLINK_WriteReg(R0, 0x08001C00)  returns 0x00 (0000ms, 1311ms total)
T2448 001:950 JLINK_WriteReg(R1, 0x00000400)  returns 0x00 (0000ms, 1311ms total)
T2448 001:950 JLINK_WriteReg(R2, 0x20000164)  returns 0x00 (0000ms, 1311ms total)
T2448 001:950 JLINK_WriteReg(R3, 0x00000000)  returns 0x00 (0000ms, 1311ms total)
T2448 001:950 JLINK_WriteReg(R4, 0x00000000)  returns 0x00 (0000ms, 1311ms total)
T2448 001:950 JLINK_WriteReg(R5, 0x00000000)  returns 0x00 (0000ms, 1311ms total)
T2448 001:950 JLINK_WriteReg(R6, 0x00000000)  returns 0x00 (0000ms, 1311ms total)
T2448 001:950 JLINK_WriteReg(R7, 0x00000000)  returns 0x00 (0000ms, 1311ms total)
T2448 001:950 JLINK_WriteReg(R8, 0x00000000)  returns 0x00 (0000ms, 1311ms total)
T2448 001:950 JLINK_WriteReg(R9, 0x20000160)  returns 0x00 (0000ms, 1311ms total)
T2448 001:950 JLINK_WriteReg(R10, 0x00000000)  returns 0x00 (0000ms, 1311ms total)
T2448 001:950 JLINK_WriteReg(R11, 0x00000000)  returns 0x00 (0000ms, 1311ms total)
T2448 001:950 JLINK_WriteReg(R12, 0x00000000)  returns 0x00 (0000ms, 1311ms total)
T2448 001:950 JLINK_WriteReg(R13, 0x20000800)  returns 0x00 (0000ms, 1311ms total)
T2448 001:950 JLINK_WriteReg(R14, 0x20000001)  returns 0x00 (0000ms, 1311ms total)
T2448 001:950 JLINK_WriteReg(R15, 0x200000F4)  returns 0x00 (0000ms, 1311ms total)
T2448 001:950 JLINK_WriteReg(XPSR, 0x01000000)  returns 0x00 (0000ms, 1311ms total)
T2448 001:950 JLINK_WriteReg(MSP, 0x20000800)  returns 0x00 (0000ms, 1311ms total)
T2448 001:950 JLINK_WriteReg(PSP, 0x20000800)  returns 0x00 (0000ms, 1311ms total)
T2448 001:950 JLINK_WriteReg(CFBP, 0x00000000)  returns 0x00 (0000ms, 1311ms total)
T2448 001:951 JLINK_SetBPEx(Addr = 0x20000000, Type = 0xFFFFFFF2)  returns 0x0000000C (0000ms, 1312ms total)
T2448 001:951 JLINK_Go() -- CPU_WriteMem(4 bytes @ 0xE0002008) -- CPU_WriteMem(4 bytes @ 0xE000200C) -- CPU_WriteMem(4 bytes @ 0xE0002010) -- CPU_WriteMem(4 bytes @ 0xE0002014) -- CPU_WriteMem(4 bytes @ 0xE0002018) -- CPU_WriteMem(4 bytes @ 0xE000201C) (0006ms, 1312ms total)
T2448 001:957 JLINK_IsHalted()  returns FALSE (0001ms, 1318ms total)
T2448 002:009 JLINK_IsHalted() -- CPU_ReadMem(2 bytes @ 0x20000000)  returns TRUE (0005ms, 1318ms total)
T2448 002:014 JLINK_ReadReg(R15)  returns 0x20000000 (0000ms, 1318ms total)
T2448 002:014 JLINK_ClrBPEx(BPHandle = 0x0000000C)  returns 0x00 (0000ms, 1318ms total)
T2448 002:014 JLINK_ReadReg(R0)  returns 0x00000000 (0000ms, 1318ms total)
T2448 002:015 JLINK_WriteMem(0x20000164, 0x0400 Bytes, ...) -- Data:  A7 DB A3 E7 54 02 00 20 34 02 00 20 4C 02 00 20 ... -- CPU_WriteMem(1024 bytes @ 0x20000164)  returns 0x400 (0008ms, 1318ms total)
T2448 002:024 JLINK_WriteReg(R0, 0x08002000)  returns 0x00 (0000ms, 1327ms total)
T2448 002:024 JLINK_WriteReg(R1, 0x00000400)  returns 0x00 (0000ms, 1327ms total)
T2448 002:024 JLINK_WriteReg(R2, 0x20000164)  returns 0x00 (0000ms, 1327ms total)
T2448 002:024 JLINK_WriteReg(R3, 0x00000000)  returns 0x00 (0000ms, 1327ms total)
T2448 002:024 JLINK_WriteReg(R4, 0x00000000)  returns 0x00 (0000ms, 1327ms total)
T2448 002:024 JLINK_WriteReg(R5, 0x00000000)  returns 0x00 (0000ms, 1327ms total)
T2448 002:024 JLINK_WriteReg(R6, 0x00000000)  returns 0x00 (0000ms, 1327ms total)
T2448 002:024 JLINK_WriteReg(R7, 0x00000000)  returns 0x00 (0000ms, 1327ms total)
T2448 002:024 JLINK_WriteReg(R8, 0x00000000)  returns 0x00 (0000ms, 1327ms total)
T2448 002:024 JLINK_WriteReg(R9, 0x20000160)  returns 0x00 (0000ms, 1327ms total)
T2448 002:024 JLINK_WriteReg(R10, 0x00000000)  returns 0x00 (0000ms, 1327ms total)
T2448 002:024 JLINK_WriteReg(R11, 0x00000000)  returns 0x00 (0000ms, 1327ms total)
T2448 002:024 JLINK_WriteReg(R12, 0x00000000)  returns 0x00 (0000ms, 1327ms total)
T2448 002:024 JLINK_WriteReg(R13, 0x20000800)  returns 0x00 (0000ms, 1327ms total)
T2448 002:024 JLINK_WriteReg(R14, 0x20000001)  returns 0x00 (0000ms, 1327ms total)
T2448 002:024 JLINK_WriteReg(R15, 0x200000F4)  returns 0x00 (0000ms, 1327ms total)
T2448 002:024 JLINK_WriteReg(XPSR, 0x01000000)  returns 0x00 (0000ms, 1327ms total)
T2448 002:024 JLINK_WriteReg(MSP, 0x20000800)  returns 0x00 (0000ms, 1327ms total)
T2448 002:024 JLINK_WriteReg(PSP, 0x20000800)  returns 0x00 (0000ms, 1327ms total)
T2448 002:024 JLINK_WriteReg(CFBP, 0x00000000)  returns 0x00 (0000ms, 1327ms total)
T2448 002:025 JLINK_SetBPEx(Addr = 0x20000000, Type = 0xFFFFFFF2)  returns 0x0000000D (0000ms, 1328ms total)
T2448 002:025 JLINK_Go() -- CPU_WriteMem(4 bytes @ 0xE0002008) -- CPU_WriteMem(4 bytes @ 0xE000200C) -- CPU_WriteMem(4 bytes @ 0xE0002010) -- CPU_WriteMem(4 bytes @ 0xE0002014) -- CPU_WriteMem(4 bytes @ 0xE0002018) -- CPU_WriteMem(4 bytes @ 0xE000201C) (0006ms, 1328ms total)
T2448 002:031 JLINK_IsHalted()  returns FALSE (0001ms, 1334ms total)
T2448 002:083 JLINK_IsHalted() -- CPU_ReadMem(2 bytes @ 0x20000000)  returns TRUE (0005ms, 1334ms total)
T2448 002:088 JLINK_ReadReg(R15)  returns 0x20000000 (0000ms, 1334ms total)
T2448 002:088 JLINK_ClrBPEx(BPHandle = 0x0000000D)  returns 0x00 (0000ms, 1334ms total)
T2448 002:088 JLINK_ReadReg(R0)  returns 0x00000000 (0000ms, 1334ms total)
T2448 002:090 JLINK_WriteMem(0x20000164, 0x0400 Bytes, ...) -- Data:  81 F8 00 24 00 78 00 F0 1F 01 8F 40 40 09 03 EB ... -- CPU_WriteMem(1024 bytes @ 0x20000164)  returns 0x400 (0009ms, 1334ms total)
T2448 002:099 JLINK_WriteReg(R0, 0x08002400)  returns 0x00 (0000ms, 1343ms total)
T2448 002:099 JLINK_WriteReg(R1, 0x00000400)  returns 0x00 (0000ms, 1343ms total)
T2448 002:099 JLINK_WriteReg(R2, 0x20000164)  returns 0x00 (0000ms, 1343ms total)
T2448 002:099 JLINK_WriteReg(R3, 0x00000000)  returns 0x00 (0000ms, 1343ms total)
T2448 002:099 JLINK_WriteReg(R4, 0x00000000)  returns 0x00 (0000ms, 1343ms total)
T2448 002:099 JLINK_WriteReg(R5, 0x00000000)  returns 0x00 (0000ms, 1343ms total)
T2448 002:099 JLINK_WriteReg(R6, 0x00000000)  returns 0x00 (0000ms, 1343ms total)
T2448 002:099 JLINK_WriteReg(R7, 0x00000000)  returns 0x00 (0000ms, 1343ms total)
T2448 002:099 JLINK_WriteReg(R8, 0x00000000)  returns 0x00 (0000ms, 1343ms total)
T2448 002:099 JLINK_WriteReg(R9, 0x20000160)  returns 0x00 (0000ms, 1343ms total)
T2448 002:099 JLINK_WriteReg(R10, 0x00000000)  returns 0x00 (0000ms, 1343ms total)
T2448 002:099 JLINK_WriteReg(R11, 0x00000000)  returns 0x00 (0000ms, 1343ms total)
T2448 002:099 JLINK_WriteReg(R12, 0x00000000)  returns 0x00 (0000ms, 1343ms total)
T2448 002:099 JLINK_WriteReg(R13, 0x20000800)  returns 0x00 (0000ms, 1343ms total)
T2448 002:099 JLINK_WriteReg(R14, 0x20000001)  returns 0x00 (0000ms, 1343ms total)
T2448 002:099 JLINK_WriteReg(R15, 0x200000F4)  returns 0x00 (0000ms, 1343ms total)
T2448 002:099 JLINK_WriteReg(XPSR, 0x01000000)  returns 0x00 (0000ms, 1343ms total)
T2448 002:099 JLINK_WriteReg(MSP, 0x20000800)  returns 0x00 (0000ms, 1343ms total)
T2448 002:099 JLINK_WriteReg(PSP, 0x20000800)  returns 0x00 (0001ms, 1343ms total)
T2448 002:100 JLINK_WriteReg(CFBP, 0x00000000)  returns 0x00 (0000ms, 1344ms total)
T2448 002:100 JLINK_SetBPEx(Addr = 0x20000000, Type = 0xFFFFFFF2)  returns 0x0000000E (0000ms, 1344ms total)
T2448 002:100 JLINK_Go() -- CPU_WriteMem(4 bytes @ 0xE0002008) -- CPU_WriteMem(4 bytes @ 0xE000200C) -- CPU_WriteMem(4 bytes @ 0xE0002010) -- CPU_WriteMem(4 bytes @ 0xE0002014) -- CPU_WriteMem(4 bytes @ 0xE0002018) -- CPU_WriteMem(4 bytes @ 0xE000201C) (0006ms, 1344ms total)
T2448 002:106 JLINK_IsHalted()  returns FALSE (0001ms, 1350ms total)
T2448 002:158 JLINK_IsHalted() -- CPU_ReadMem(2 bytes @ 0x20000000)  returns TRUE (0005ms, 1350ms total)
T2448 002:163 JLINK_ReadReg(R15)  returns 0x20000000 (0000ms, 1350ms total)
T2448 002:163 JLINK_ClrBPEx(BPHandle = 0x0000000E)  returns 0x00 (0000ms, 1350ms total)
T2448 002:163 JLINK_ReadReg(R0)  returns 0x00000000 (0000ms, 1350ms total)
T2448 002:164 JLINK_WriteMem(0x20000164, 0x0400 Bytes, ...) -- Data:  4F F0 E0 21 4F F0 80 50 C1 F8 04 0D 20 46 BD E8 ... -- CPU_WriteMem(1024 bytes @ 0x20000164)  returns 0x400 (0008ms, 1350ms total)
T2448 002:172 JLINK_WriteReg(R0, 0x08002800)  returns 0x00 (0001ms, 1358ms total)
T2448 002:173 JLINK_WriteReg(R1, 0x00000400)  returns 0x00 (0000ms, 1359ms total)
T2448 002:173 JLINK_WriteReg(R2, 0x20000164)  returns 0x00 (0000ms, 1359ms total)
T2448 002:173 JLINK_WriteReg(R3, 0x00000000)  returns 0x00 (0000ms, 1359ms total)
T2448 002:173 JLINK_WriteReg(R4, 0x00000000)  returns 0x00 (0000ms, 1359ms total)
T2448 002:173 JLINK_WriteReg(R5, 0x00000000)  returns 0x00 (0000ms, 1359ms total)
T2448 002:173 JLINK_WriteReg(R6, 0x00000000)  returns 0x00 (0000ms, 1359ms total)
T2448 002:173 JLINK_WriteReg(R7, 0x00000000)  returns 0x00 (0000ms, 1359ms total)
T2448 002:173 JLINK_WriteReg(R8, 0x00000000)  returns 0x00 (0000ms, 1359ms total)
T2448 002:173 JLINK_WriteReg(R9, 0x20000160)  returns 0x00 (0000ms, 1359ms total)
T2448 002:174 JLINK_WriteReg(R10, 0x00000000)  returns 0x00 (0000ms, 1360ms total)
T2448 002:174 JLINK_WriteReg(R11, 0x00000000)  returns 0x00 (0000ms, 1360ms total)
T2448 002:174 JLINK_WriteReg(R12, 0x00000000)  returns 0x00 (0000ms, 1360ms total)
T2448 002:174 JLINK_WriteReg(R13, 0x20000800)  returns 0x00 (0000ms, 1360ms total)
T2448 002:174 JLINK_WriteReg(R14, 0x20000001)  returns 0x00 (0000ms, 1360ms total)
T2448 002:174 JLINK_WriteReg(R15, 0x200000F4)  returns 0x00 (0000ms, 1360ms total)
T2448 002:174 JLINK_WriteReg(XPSR, 0x01000000)  returns 0x00 (0000ms, 1360ms total)
T2448 002:174 JLINK_WriteReg(MSP, 0x20000800)  returns 0x00 (0000ms, 1360ms total)
T2448 002:174 JLINK_WriteReg(PSP, 0x20000800)  returns 0x00 (0000ms, 1360ms total)
T2448 002:174 JLINK_WriteReg(CFBP, 0x00000000)  returns 0x00 (0000ms, 1360ms total)
T2448 002:174 JLINK_SetBPEx(Addr = 0x20000000, Type = 0xFFFFFFF2)  returns 0x0000000F (0000ms, 1360ms total)
T2448 002:174 JLINK_Go() -- CPU_WriteMem(4 bytes @ 0xE0002008) -- CPU_WriteMem(4 bytes @ 0xE000200C) -- CPU_WriteMem(4 bytes @ 0xE0002010) -- CPU_WriteMem(4 bytes @ 0xE0002014) -- CPU_WriteMem(4 bytes @ 0xE0002018) -- CPU_WriteMem(4 bytes @ 0xE000201C) (0006ms, 1360ms total)
T2448 002:181 JLINK_IsHalted()  returns FALSE (0000ms, 1367ms total)
T2448 002:232 JLINK_IsHalted() -- CPU_ReadMem(2 bytes @ 0x20000000)  returns TRUE (0005ms, 1367ms total)
T2448 002:237 JLINK_ReadReg(R15)  returns 0x20000000 (0000ms, 1367ms total)
T2448 002:237 JLINK_ClrBPEx(BPHandle = 0x0000000F)  returns 0x00 (0000ms, 1367ms total)
T2448 002:237 JLINK_ReadReg(R0)  returns 0x00000000 (0000ms, 1367ms total)
T2448 002:239 JLINK_WriteMem(0x20000164, 0x0400 Bytes, ...) -- Data:  51 F8 20 00 09 49 08 60 09 49 08 60 01 20 28 70 ... -- CPU_WriteMem(1024 bytes @ 0x20000164)  returns 0x400 (0008ms, 1367ms total)
T2448 002:247 JLINK_WriteReg(R0, 0x08002C00)  returns 0x00 (0000ms, 1375ms total)
T2448 002:247 JLINK_WriteReg(R1, 0x00000400)  returns 0x00 (0000ms, 1375ms total)
T2448 002:247 JLINK_WriteReg(R2, 0x20000164)  returns 0x00 (0000ms, 1375ms total)
T2448 002:247 JLINK_WriteReg(R3, 0x00000000)  returns 0x00 (0000ms, 1375ms total)
T2448 002:247 JLINK_WriteReg(R4, 0x00000000)  returns 0x00 (0001ms, 1375ms total)
T2448 002:248 JLINK_WriteReg(R5, 0x00000000)  returns 0x00 (0000ms, 1376ms total)
T2448 002:248 JLINK_WriteReg(R6, 0x00000000)  returns 0x00 (0000ms, 1376ms total)
T2448 002:248 JLINK_WriteReg(R7, 0x00000000)  returns 0x00 (0000ms, 1376ms total)
T2448 002:248 JLINK_WriteReg(R8, 0x00000000)  returns 0x00 (0000ms, 1376ms total)
T2448 002:248 JLINK_WriteReg(R9, 0x20000160)  returns 0x00 (0000ms, 1376ms total)
T2448 002:248 JLINK_WriteReg(R10, 0x00000000)  returns 0x00 (0000ms, 1376ms total)
T2448 002:248 JLINK_WriteReg(R11, 0x00000000)  returns 0x00 (0000ms, 1376ms total)
T2448 002:248 JLINK_WriteReg(R12, 0x00000000)  returns 0x00 (0000ms, 1376ms total)
T2448 002:248 JLINK_WriteReg(R13, 0x20000800)  returns 0x00 (0000ms, 1376ms total)
T2448 002:248 JLINK_WriteReg(R14, 0x20000001)  returns 0x00 (0000ms, 1376ms total)
T2448 002:248 JLINK_WriteReg(R15, 0x200000F4)  returns 0x00 (0000ms, 1376ms total)
T2448 002:248 JLINK_WriteReg(XPSR, 0x01000000)  returns 0x00 (0000ms, 1376ms total)
T2448 002:248 JLINK_WriteReg(MSP, 0x20000800)  returns 0x00 (0000ms, 1376ms total)
T2448 002:248 JLINK_WriteReg(PSP, 0x20000800)  returns 0x00 (0000ms, 1376ms total)
T2448 002:248 JLINK_WriteReg(CFBP, 0x00000000)  returns 0x00 (0001ms, 1376ms total)
T2448 002:249 JLINK_SetBPEx(Addr = 0x20000000, Type = 0xFFFFFFF2)  returns 0x00000010 (0000ms, 1377ms total)
T2448 002:249 JLINK_Go() -- CPU_WriteMem(4 bytes @ 0xE0002008) -- CPU_WriteMem(4 bytes @ 0xE000200C) -- CPU_WriteMem(4 bytes @ 0xE0002010) -- CPU_WriteMem(4 bytes @ 0xE0002014) -- CPU_WriteMem(4 bytes @ 0xE0002018) -- CPU_WriteMem(4 bytes @ 0xE000201C) (0005ms, 1377ms total)
T2448 002:254 JLINK_IsHalted()  returns FALSE (0001ms, 1382ms total)
T2448 002:306 JLINK_IsHalted() -- CPU_ReadMem(2 bytes @ 0x20000000)  returns TRUE (0005ms, 1382ms total)
T2448 002:311 JLINK_ReadReg(R15)  returns 0x20000000 (0000ms, 1382ms total)
T2448 002:311 JLINK_ClrBPEx(BPHandle = 0x00000010)  returns 0x00 (0000ms, 1382ms total)
T2448 002:311 JLINK_ReadReg(R0)  returns 0x00000000 (0000ms, 1382ms total)
T2448 002:313 JLINK_WriteMem(0x20000164, 0x0400 Bytes, ...) -- Data:  20 46 FD F7 B9 F8 07 B0 BD E8 F0 4F FF F7 D0 BB ... -- CPU_WriteMem(1024 bytes @ 0x20000164)  returns 0x400 (0008ms, 1382ms total)
T2448 002:321 JLINK_WriteReg(R0, 0x08003000)  returns 0x00 (0000ms, 1390ms total)
T2448 002:321 JLINK_WriteReg(R1, 0x00000400)  returns 0x00 (0001ms, 1390ms total)
T2448 002:322 JLINK_WriteReg(R2, 0x20000164)  returns 0x00 (0000ms, 1391ms total)
T2448 002:322 JLINK_WriteReg(R3, 0x00000000)  returns 0x00 (0000ms, 1391ms total)
T2448 002:322 JLINK_WriteReg(R4, 0x00000000)  returns 0x00 (0000ms, 1391ms total)
T2448 002:322 JLINK_WriteReg(R5, 0x00000000)  returns 0x00 (0000ms, 1391ms total)
T2448 002:322 JLINK_WriteReg(R6, 0x00000000)  returns 0x00 (0000ms, 1391ms total)
T2448 002:322 JLINK_WriteReg(R7, 0x00000000)  returns 0x00 (0000ms, 1391ms total)
T2448 002:322 JLINK_WriteReg(R8, 0x00000000)  returns 0x00 (0000ms, 1391ms total)
T2448 002:322 JLINK_WriteReg(R9, 0x20000160)  returns 0x00 (0000ms, 1391ms total)
T2448 002:322 JLINK_WriteReg(R10, 0x00000000)  returns 0x00 (0000ms, 1391ms total)
T2448 002:322 JLINK_WriteReg(R11, 0x00000000)  returns 0x00 (0000ms, 1391ms total)
T2448 002:322 JLINK_WriteReg(R12, 0x00000000)  returns 0x00 (0000ms, 1391ms total)
T2448 002:322 JLINK_WriteReg(R13, 0x20000800)  returns 0x00 (0000ms, 1391ms total)
T2448 002:322 JLINK_WriteReg(R14, 0x20000001)  returns 0x00 (0000ms, 1391ms total)
T2448 002:322 JLINK_WriteReg(R15, 0x200000F4)  returns 0x00 (0000ms, 1391ms total)
T2448 002:322 JLINK_WriteReg(XPSR, 0x01000000)  returns 0x00 (0000ms, 1391ms total)
T2448 002:322 JLINK_WriteReg(MSP, 0x20000800)  returns 0x00 (0000ms, 1391ms total)
T2448 002:322 JLINK_WriteReg(PSP, 0x20000800)  returns 0x00 (0000ms, 1391ms total)
T2448 002:322 JLINK_WriteReg(CFBP, 0x00000000)  returns 0x00 (0000ms, 1391ms total)
T2448 002:322 JLINK_SetBPEx(Addr = 0x20000000, Type = 0xFFFFFFF2)  returns 0x00000011 (0000ms, 1391ms total)
